
**** 11/29/24 16:22:55 *** PSpice 23.1.0 (29 September 2023) ** ID# 0 ********

 ** Profile: "SCHEMATIC1-Sim_notch"  [ D:\GD\Sintesis de redes activas\sintesis_redes_activas\Extra_Filtro_Notch\filtro_notch-pspicef


 ****     CIRCUIT DESCRIPTION


******************************************************************************




** Creating circuit file "Sim_notch.cir" 
** WARNING: THIS AUTOMATICALLY GENERATED FILE MAY BE OVERWRITTEN BY SUBSEQUENT SIMULATIONS

*Libraries: 
* Profile Libraries :
* Local Libraries :
* From [PSPICE NETLIST] section of C:\Users\maria\AppData\Roaming\SBP_23.1\cdssetup\OrCAD_PSpice\23.1.0\PSpice.ini file:
.lib "nom.lib" 

*Analysis directives: 
.AC DEC 100 10 100k
.MC 50 AC V([OUT]) YMAX OUTPUT ALL 
.OPTIONS DISTRIBUTION GAUSS
.OPTIONS ADVCONV
.PROBE64 V(alias(*)) I(alias(*)) W(alias(*)) D(alias(*)) NOISE(alias(*)) 
.INC "..\SCHEMATIC1.net" 



**** INCLUDING SCHEMATIC1.net ****
* source FILTRO_NOTCH
X_U1A         N05073 OUTPB N04642 N04654 OUTPB LM324
V_V1         N04642 0 10V
V_V2         0 N04654 10V
R_R1pb         IN N04884 R_R1pb 10k TC=0,0 
.model        R_R1pb RES R=1 DEV=10% TC1=0 TC2=0
R_R2pb         N04884 N05073 R_R2pb 10k TC=0,0 
.model        R_R2pb RES R=1 DEV=10% TC1=0 TC2=0
C_C1pb         0 N05073 C_C1pb 15.9n  TC=0,0 
.model        C_C1pb CAP C=1 DEV=10% TC1=0 TC2=0 VC1=0 VC2=0
C_C2pb         N04884 OUTPB C_C2pb 6.36u  TC=0,0 
.model        C_C2pb CAP C=1 DEV=10% TC1=0 TC2=0 VC1=0 VC2=0
X_U1B         N06276 OUTPA N06112 N06444 OUTPA LM324
V_V4         N06112 0 10V
V_V6         0 N06444 10V
V_V5         IN 0  AC 1
+SIN 0 100mV 1k 0 0 0
R_R1pa         N06142 OUTPA R_R1pa 1.59k TC=0,0 
.model        R_R1pa RES R=1 DEV=10% TC1=0 TC2=0
R_R2pa         0 N06276 R_R2pa 636k TC=0,0 
.model        R_R2pa RES R=1 DEV=10% TC1=0 TC2=0
C_C2pa         N06142 N06276 C_C2pa 100n  TC=0,0 
.model        C_C2pa CAP C=1 DEV=10% TC1=0 TC2=0 VC1=0 VC2=0
C_C1pa         IN N06142  100n  TC=0,0 
R_RiPB         OUTPB N07525 R_RiPB 10k TC=0,0 
.model        R_RiPB RES R=1 DEV=10% TC1=0 TC2=0
R_RiPA         OUTPA N07525 R_RiPA 10k TC=0,0 
.model        R_RiPA RES R=1 DEV=10% TC1=0 TC2=0
X_U1C         0 N07525 N04642 N04654 OUT LM324
R_Rf         N07525 OUT R_Rf 10k TC=0,0 
.model        R_Rf RES R=1 DEV=10% TC1=0 TC2=0
R_Rload         0 OUT  5k TC=0,0 

**** RESUMING Sim_notch.cir ****
.END

**** 11/29/24 16:22:55 *** PSpice 23.1.0 (29 September 2023) ** ID# 0 ********

 ** Profile: "SCHEMATIC1-Sim_notch"  [ D:\GD\Sintesis de redes activas\sintesis_redes_activas\Extra_Filtro_Notch\filtro_notch-pspicef


 ****     Diode MODEL PARAMETERS


******************************************************************************




               X_U1A.dx        X_U1A.dy        X_U1B.dx        X_U1B.dy        
          IS  800.000000E-18  800.000000E-18  800.000000E-18  800.000000E-18 
          RS    1               1.000000E-03    1               1.000000E-03 
         CJO                   10.000000E-12                   10.000000E-12 


               X_U1C.dx        X_U1C.dy        
          IS  800.000000E-18  800.000000E-18 
          RS    1               1.000000E-03 
         CJO                   10.000000E-12 


**** 11/29/24 16:22:55 *** PSpice 23.1.0 (29 September 2023) ** ID# 0 ********

 ** Profile: "SCHEMATIC1-Sim_notch"  [ D:\GD\Sintesis de redes activas\sintesis_redes_activas\Extra_Filtro_Notch\filtro_notch-pspicef


 ****     BJT MODEL PARAMETERS


******************************************************************************




               X_U1A.qx        X_U1B.qx        X_U1C.qx        
               PNP             PNP             PNP             
       LEVEL    1               1               1            
          IS  800.000000E-18  800.000000E-18  800.000000E-18 
          BF  166.7           166.7           166.7          
          NF    1               1               1            
          BR    1               1               1            
          NR    1               1               1            
         ISS    0               0               0            
          RE    0               0               0            
          RC    0               0               0            
         CJE    0               0               0            
         VJE     .75             .75             .75         
         CJC    0               0               0            
         VJC     .75             .75             .75         
         MJC     .33             .33             .33         
        XCJC    1               1               1            
         CJS    0               0               0            
         VJS     .75             .75             .75         
          KF    0               0               0            
          AF    1               1               1            
          CN    2.2             2.2             2.2          
           D     .52             .52             .52         


**** 11/29/24 16:22:55 *** PSpice 23.1.0 (29 September 2023) ** ID# 0 ********

 ** Profile: "SCHEMATIC1-Sim_notch"  [ D:\GD\Sintesis de redes activas\sintesis_redes_activas\Extra_Filtro_Notch\filtro_notch-pspicef


 ****     Resistor MODEL PARAMETERS


******************************************************************************




               R_R1pb          R_R2pb          R_R1pa          R_R2pa          
           R    1               1               1               1            


               R_RiPB          R_RiPA          R_Rf            
           R    1               1               1            


**** 11/29/24 16:22:55 *** PSpice 23.1.0 (29 September 2023) ** ID# 0 ********

 ** Profile: "SCHEMATIC1-Sim_notch"  [ D:\GD\Sintesis de redes activas\sintesis_redes_activas\Extra_Filtro_Notch\filtro_notch-pspicef


 ****     Capacitor MODEL PARAMETERS


******************************************************************************




               C_C1pb          C_C2pb          C_C2pa          
           C    1               1               1            


**** 11/29/24 16:22:55 *** PSpice 23.1.0 (29 September 2023) ** ID# 0 ********

 ** Profile: "SCHEMATIC1-Sim_notch"  [ D:\GD\Sintesis de redes activas\sintesis_redes_activas\Extra_Filtro_Notch\filtro_notch-pspicef


 ****     Current Controlled Switch MODEL PARAMETERS


******************************************************************************




               X_U1A.sw2       X_U1A.sw1       X_U1A.sw3       X_U1A.sw4       
         RON    1               1               1               1            
        ROFF   10.000000E+06   10.000000E+06   10.000000E+06   10.000000E+06 
         ION    0              -1.000000E-06   -1.000000E-06    0            
        IOFF   -1.000000E-06    0               0              -1.000000E-06 


               X_U1B.sw2       X_U1B.sw1       X_U1B.sw3       X_U1B.sw4       
         RON    1               1               1               1            
        ROFF   10.000000E+06   10.000000E+06   10.000000E+06   10.000000E+06 
         ION    0              -1.000000E-06   -1.000000E-06    0            
        IOFF   -1.000000E-06    0               0              -1.000000E-06 


               X_U1C.sw2       X_U1C.sw1       X_U1C.sw3       X_U1C.sw4       
         RON    1               1               1               1            
        ROFF   10.000000E+06   10.000000E+06   10.000000E+06   10.000000E+06 
         ION    0              -1.000000E-06   -1.000000E-06    0            
        IOFF   -1.000000E-06    0               0              -1.000000E-06 


**** 11/29/24 16:22:55 *** PSpice 23.1.0 (29 September 2023) ** ID# 0 ********

 ** Profile: "SCHEMATIC1-Sim_notch"  [ D:\GD\Sintesis de redes activas\sintesis_redes_activas\Extra_Filtro_Notch\filtro_notch-pspicef


 ****     SMALL SIGNAL BIAS SOLUTION       TEMPERATURE =   27.000 DEG C

                      MONTE CARLO NOMINAL

******************************************************************************



 NODE   VOLTAGE     NODE   VOLTAGE     NODE   VOLTAGE     NODE   VOLTAGE


(   IN)    0.0000  (  OUT)    -.0300  (OUTPA)     .0282  (OUTPB) 701.9E-06      

(N04642)   10.0000 (N04654)  -10.0000 (N04884) 447.4E-06 (N05073) 894.7E-06     

(N06112)   10.0000 (N06142)     .0282 (N06276)     .0284 (N06444)  -10.0000     

(N07525)-192.2E-06 (X_U1A.6)-133.2E-09                   (X_U1A.7) 704.1E-06    

(X_U1A.8) 704.1E-06                   (X_U1A.9)    0.0000                       

(X_U1A.a)   10.0000                   (X_U1A.b)-1.044E-06                       

(X_U1B.6)-5.364E-06                   (X_U1B.7)     .0284                       

(X_U1B.8)     .0284                   (X_U1B.9)    0.0000                       

(X_U1B.a)   10.0000                   (X_U1B.b)-3.799E-06                       

(X_U1C.6) 5.778E-06                   (X_U1C.7)    -.0304                       

(X_U1C.8)    -.0304                   (X_U1C.9)    0.0000                       

(X_U1C.a) 9.972E-06                   (X_U1C.b)  -10.0000                       

(X_U1A.10)     .6085                  (X_U1A.11)   -9.9602                      

(X_U1A.12)   -9.9604                  (X_U1A.13)     .5946                      

(X_U1A.14)     .5946                  (X_U1A.53)    8.5000                      

(X_U1A.54)   -9.1780                  (X_U1A.90) 44.46E-06                      

(X_U1A.91)   40.0000                  (X_U1A.92)  -40.0000                      

(X_U1A.99)    0.0000                  (X_U1B.10)     .6360                      

(X_U1B.11)   -9.9602                  (X_U1B.12)   -9.9604                      

(X_U1B.13)     .6221                  (X_U1B.14)     .6222                      

(X_U1B.53)    8.5000                  (X_U1B.54)   -9.1780                      

(X_U1B.90)     .0028                  (X_U1B.91)   40.0000                      

(X_U1B.92)  -40.0000                  (X_U1B.99)    0.0000                      

(X_U1C.10)     .6076                  (X_U1C.11)   -9.9602                      

(X_U1C.12)   -9.9604                  (X_U1C.13)     .5937                      

(X_U1C.14)     .5937                  (X_U1C.53)    8.5000                      

(X_U1C.54)   -9.1780                  (X_U1C.90)    -.0090                      

(X_U1C.91)   40.0000                  (X_U1C.92)  -40.0000                      

(X_U1C.99)    0.0000                  




    VOLTAGE SOURCE CURRENTS
    NAME         CURRENT

    V_V1        -4.437E-03
    V_V2        -4.445E-03
    V_V4        -2.221E-03
    V_V6        -2.218E-03
    V_V5         4.474E-08
    X_U1A.vb    -1.332E-12
    X_U1A.vc     8.500E-12
    X_U1A.ve     1.044E-11
    X_U1A.vlim   4.446E-08
    X_U1A.vlp   -4.000E-11
    X_U1A.vln   -4.000E-11
    X_U1B.vb    -5.364E-11
    X_U1B.vc     8.473E-12
    X_U1B.ve     1.046E-11
    X_U1B.vlim   2.799E-06
    X_U1B.vlp   -4.000E-11
    X_U1B.vln   -4.001E-11
    X_U1C.vb     5.778E-11
    X_U1C.vc     8.531E-12
    X_U1C.ve     1.041E-11
    X_U1C.vlim  -8.972E-06
    X_U1C.vlp   -4.001E-11
    X_U1C.vln   -3.999E-11

    TOTAL POWER DISSIPATION   1.33E-01  WATTS


**** 11/29/24 16:22:55 *** PSpice 23.1.0 (29 September 2023) ** ID# 0 ********

 ** Profile: "SCHEMATIC1-Sim_notch"  [ D:\GD\Sintesis de redes activas\sintesis_redes_activas\Extra_Filtro_Notch\filtro_notch-pspicef


 ****     SMALL SIGNAL BIAS SOLUTION       TEMPERATURE =   27.000 DEG C

                      MONTE CARLO PASS 2

******************************************************************************



 NODE   VOLTAGE     NODE   VOLTAGE     NODE   VOLTAGE     NODE   VOLTAGE


(   IN)    0.0000  (  OUT)    -.0288  (OUTPA)     .0305  (OUTPB) 681.8E-06      

(N04642)   10.0000 (N04654)  -10.0000 (N04884) 462.2E-06 (N05073) 874.6E-06     

(N06112)   10.0000 (N06142)     .0305 (N06276)     .0307 (N06444)  -10.0000     

(N07525)-192.2E-06 (X_U1A.6)-129.5E-09                   (X_U1A.7) 684.5E-06    

(X_U1A.8) 684.5E-06                   (X_U1A.9)    0.0000                       

(X_U1A.a)   10.0000                   (X_U1A.b)-1.053E-06                       

(X_U1B.6)-5.782E-06                   (X_U1B.7)     .0306                       

(X_U1B.8)     .0306                   (X_U1B.9)    0.0000                       

(X_U1B.a)   10.0000                   (X_U1B.b)-3.914E-06                       

(X_U1C.6) 5.550E-06                   (X_U1C.7)    -.0292                       

(X_U1C.8)    -.0292                   (X_U1C.9)    0.0000                       

(X_U1C.a) 9.856E-06                   (X_U1C.b)  -10.0000                       

(X_U1A.10)     .6085                  (X_U1A.11)   -9.9602                      

(X_U1A.12)   -9.9604                  (X_U1A.13)     .5945                      

(X_U1A.14)     .5946                  (X_U1A.53)    8.5000                      

(X_U1A.54)   -9.1780                  (X_U1A.90) 52.90E-06                      

(X_U1A.91)   40.0000                  (X_U1A.92)  -40.0000                      

(X_U1A.99)    0.0000                  (X_U1B.10)     .6382                      

(X_U1B.11)   -9.9602                  (X_U1B.12)   -9.9604                      

(X_U1B.13)     .6243                  (X_U1B.14)     .6244                      

(X_U1B.53)    8.5000                  (X_U1B.54)   -9.1780                      

(X_U1B.90)     .0029                  (X_U1B.91)   40.0000                      

(X_U1B.92)  -40.0000                  (X_U1B.99)    0.0000                      

(X_U1C.10)     .6076                  (X_U1C.11)   -9.9602                      

(X_U1C.12)   -9.9604                  (X_U1C.13)     .5937                      

(X_U1C.14)     .5937                  (X_U1C.53)    8.5000                      

(X_U1C.54)   -9.1780                  (X_U1C.90)    -.0089                      

(X_U1C.91)   40.0000                  (X_U1C.92)  -40.0000                      

(X_U1C.99)    0.0000                  




    VOLTAGE SOURCE CURRENTS
    NAME         CURRENT

    V_V1        -4.437E-03
    V_V2        -4.445E-03
    V_V4        -2.221E-03
    V_V6        -2.218E-03
    V_V5         4.474E-08
    X_U1A.vb    -1.295E-12
    X_U1A.vc     8.500E-12
    X_U1A.ve     1.044E-11
    X_U1A.vlim   5.290E-08
    X_U1A.vlp   -4.000E-11
    X_U1A.vln   -4.000E-11
    X_U1B.vb    -5.782E-11
    X_U1B.vc     8.470E-12
    X_U1B.ve     1.047E-11
    X_U1B.vlim   2.914E-06
    X_U1B.vlp   -4.000E-11
    X_U1B.vln   -4.001E-11
    X_U1C.vb     5.550E-11
    X_U1C.vc     8.530E-12
    X_U1C.ve     1.041E-11
    X_U1C.vlim  -8.856E-06
    X_U1C.vlp   -4.001E-11
    X_U1C.vln   -3.999E-11

    TOTAL POWER DISSIPATION   1.33E-01  WATTS


**** 11/29/24 16:22:55 *** PSpice 23.1.0 (29 September 2023) ** ID# 0 ********

 ** Profile: "SCHEMATIC1-Sim_notch"  [ D:\GD\Sintesis de redes activas\sintesis_redes_activas\Extra_Filtro_Notch\filtro_notch-pspicef


 ****     SMALL SIGNAL BIAS SOLUTION       TEMPERATURE =   27.000 DEG C

                      MONTE CARLO PASS 3

******************************************************************************



 NODE   VOLTAGE     NODE   VOLTAGE     NODE   VOLTAGE     NODE   VOLTAGE


(   IN)    0.0000  (  OUT)    -.0335  (OUTPA)     .0281  (OUTPB) 728.4E-06      

(N04642)   10.0000 (N04654)  -10.0000 (N04884) 419.8E-06 (N05073) 921.2E-06     

(N06112)   10.0000 (N06142)     .0281 (N06276)     .0283 (N06444)  -10.0000     

(N07525)-192.2E-06 (X_U1A.6)-138.2E-09                   (X_U1A.7) 730.6E-06    

(X_U1A.8) 730.6E-06                   (X_U1A.9)    0.0000                       

(X_U1A.a)   10.0000                   (X_U1A.b)-1.042E-06                       

(X_U1B.6)-5.337E-06                   (X_U1B.7)     .0282                       

(X_U1B.8)     .0282                   (X_U1B.9)    0.0000                       

(X_U1B.a)   10.0000                   (X_U1B.b)-4.259E-06                       

(X_U1C.6) 6.451E-06                   (X_U1C.7)    -.0340                       

(X_U1C.8)    -.0340                   (X_U1C.9)    0.0000                       

(X_U1C.a) 11.13E-06                   (X_U1C.b)  -10.0000                       

(X_U1A.10)     .6085                  (X_U1A.11)   -9.9602                      

(X_U1A.12)   -9.9604                  (X_U1A.13)     .5946                      

(X_U1A.14)     .5947                  (X_U1A.53)    8.5000                      

(X_U1A.54)   -9.1780                  (X_U1A.90) 42.46E-06                      

(X_U1A.91)   40.0000                  (X_U1A.92)  -40.0000                      

(X_U1A.99)    0.0000                  (X_U1B.10)     .6358                      

(X_U1B.11)   -9.9602                  (X_U1B.12)   -9.9604                      

(X_U1B.13)     .6219                  (X_U1B.14)     .6220                      

(X_U1B.53)    8.5000                  (X_U1B.54)   -9.1780                      

(X_U1B.90)     .0033                  (X_U1B.91)   40.0000                      

(X_U1B.92)  -40.0000                  (X_U1B.99)    0.0000                      

(X_U1C.10)     .6076                  (X_U1C.11)   -9.9602                      

(X_U1C.12)   -9.9604                  (X_U1C.13)     .5937                      

(X_U1C.14)     .5937                  (X_U1C.53)    8.5000                      

(X_U1C.54)   -9.1780                  (X_U1C.90)    -.0101                      

(X_U1C.91)   40.0000                  (X_U1C.92)  -40.0000                      

(X_U1C.99)    0.0000                  




    VOLTAGE SOURCE CURRENTS
    NAME         CURRENT

    V_V1        -4.437E-03
    V_V2        -4.446E-03
    V_V4        -2.222E-03
    V_V6        -2.218E-03
    V_V5         4.474E-08
    X_U1A.vb    -1.382E-12
    X_U1A.vc     8.500E-12
    X_U1A.ve     1.044E-11
    X_U1A.vlim   4.246E-08
    X_U1A.vlp   -4.000E-11
    X_U1A.vln   -4.000E-11
    X_U1B.vb    -5.337E-11
    X_U1B.vc     8.473E-12
    X_U1B.ve     1.046E-11
    X_U1B.vlim   3.259E-06
    X_U1B.vlp   -4.000E-11
    X_U1B.vln   -4.001E-11
    X_U1C.vb     6.451E-11
    X_U1C.vc     8.534E-12
    X_U1C.ve     1.040E-11
    X_U1C.vlim  -1.013E-05
    X_U1C.vlp   -4.001E-11
    X_U1C.vln   -3.999E-11

    TOTAL POWER DISSIPATION   1.33E-01  WATTS


**** 11/29/24 16:22:55 *** PSpice 23.1.0 (29 September 2023) ** ID# 0 ********

 ** Profile: "SCHEMATIC1-Sim_notch"  [ D:\GD\Sintesis de redes activas\sintesis_redes_activas\Extra_Filtro_Notch\filtro_notch-pspicef


 ****     SMALL SIGNAL BIAS SOLUTION       TEMPERATURE =   27.000 DEG C

                      MONTE CARLO PASS 4

******************************************************************************



 NODE   VOLTAGE     NODE   VOLTAGE     NODE   VOLTAGE     NODE   VOLTAGE


(   IN)    0.0000  (  OUT)    -.0378  (OUTPA)     .0369  (OUTPB) 587.6E-06      

(N04642)   10.0000 (N04654)  -10.0000 (N04884) 354.8E-06 (N05073) 780.4E-06     

(N06112)   10.0000 (N06142)     .0369 (N06276)     .0371 (N06444)  -10.0000     

(N07525)-192.1E-06 (X_U1A.6)-111.4E-09                   (X_U1A.7) 589.0E-06    

(X_U1A.8) 589.0E-06                   (X_U1A.9)    0.0000                       

(X_U1A.a)   10.0000                   (X_U1A.b)-1.027E-06                       

(X_U1B.6)-7.010E-06                   (X_U1B.7)     .0371                       

(X_U1B.8)     .0371                   (X_U1B.9)    0.0000                       

(X_U1B.a)   10.0000                   (X_U1B.b)-4.924E-06                       

(X_U1C.6) 7.299E-06                   (X_U1C.7)    -.0384                       

(X_U1C.8)    -.0384                   (X_U1C.9)    0.0000                       

(X_U1C.a) 12.65E-06                   (X_U1C.b)  -10.0000                       

(X_U1A.10)     .6084                  (X_U1A.11)   -9.9602                      

(X_U1A.12)   -9.9604                  (X_U1A.13)     .5944                      

(X_U1A.14)     .5945                  (X_U1A.53)    8.5000                      

