
**** 10/09/24 11:43:23 *** PSpice 23.1.0 (29 September 2023) ** ID# 0 ********

 ** Profile: "SCHEMATIC1-Prueba_circ"  [ c:\facultad\materias--4to-2do\sintesis de redes activas\sintesis_redes_activas\tp_balanza\or


 ****     CIRCUIT DESCRIPTION


******************************************************************************




** Creating circuit file "Prueba_circ.cir" 
** WARNING: THIS AUTOMATICALLY GENERATED FILE MAY BE OVERWRITTEN BY SUBSEQUENT SIMULATIONS

*Libraries: 
* Profile Libraries :
* Local Libraries :
* From [PSPICE NETLIST] section of C:\Users\enzog\AppData\Roaming\SPB_Data\cdssetup\OrCAD_PSpice\23.1.0\PSpice.ini file:
.lib "nom.lib" 

*Analysis directives: 
.TRAN  0 1s 0 
.OPTIONS ADVCONV
.PROBE64 V(alias(*)) I(alias(*)) W(alias(*)) D(alias(*)) NOISE(alias(*)) 
.INC "..\SCHEMATIC1.net" 



**** INCLUDING SCHEMATIC1.net ****
* source AMP_BALANZA
R_R1         N01438 N00215  1k TC=0,0 
R_R2         0 N00215  10k TC=0,0 
R_R3         N01442 N00219  1k TC=0,0 
R_R4         N00219 N00223  10k TC=0,0 
V_V3         N00448 0 5Vdc
V_V4         0 N00462 5Vdc
R_R5         0 N01010  1k TC=0,0 
R_R6         N01010 N00998  9k TC=0,0 
R_R7         0 N00998  10k TC=0,0 
V_V2         N01438 0 10mVdc
V_V1         0 N01442 10mVdc
R_R8         N00223 N03063  900 TC=0,0 
X_U3         N00215 N00219 N00448 N00462 N00223 MAX4240/MXM
X_U4         N03063 N01010 N00448 N00462 N00998 MAX4240/MXM

**** RESUMING Prueba_circ.cir ****
.END

**** 10/09/24 11:43:23 *** PSpice 23.1.0 (29 September 2023) ** ID# 0 ********

 ** Profile: "SCHEMATIC1-Prueba_circ"  [ c:\facultad\materias--4to-2do\sintesis de redes activas\sintesis_redes_activas\tp_balanza\or


 ****     Diode MODEL PARAMETERS


******************************************************************************




               X_U3.DA         X_U3.DB         X_U3.DX         X_U3.Dp         
          IS    1.000000E-12    1.000000E-12    1.000000E-12   10.000000E-15 
           N                                                    1.000000E-03 
          RS  500             500                                            


               X_U4.DA         X_U4.DB         X_U4.DX         X_U4.Dp         
          IS    1.000000E-12    1.000000E-12    1.000000E-12   10.000000E-15 
           N                                                    1.000000E-03 
          RS  500             500                                            


**** 10/09/24 11:43:23 *** PSpice 23.1.0 (29 September 2023) ** ID# 0 ********

 ** Profile: "SCHEMATIC1-Prueba_circ"  [ c:\facultad\materias--4to-2do\sintesis de redes activas\sintesis_redes_activas\tp_balanza\or


 ****     MOSFET MODEL PARAMETERS


******************************************************************************




               X_U3.MOSFET     X_U4.MOSFET     
               PMOS            PMOS            
       LEVEL    1               1            
           L  100.000000E-06  100.000000E-06 
           W  100.000000E-06  100.000000E-06 
         VTO     .25             .25         
          KP    1.800000E-03    1.800000E-03 
       GAMMA    0               0            
         PHI     .6              .6          
      LAMBDA    0               0            
          IS   10.000000E-15   10.000000E-15 
          JS    0               0            
          PB     .8              .8          
        PBSW     .8              .8          
          CJ    0               0            
        CJSW    0               0            
        CGSO    0               0            
        CGDO    0               0            
        CGBO    0               0            
         TOX    0               0            
          XJ    0               0            
       UCRIT   10.000000E+03   10.000000E+03 
      DIOMOD    1               1            
         VFB    0               0            
        LETA    0               0            
        WETA    0               0            
          U0    0               0            
        TEMP    0               0            
         VDD    5               5            
       XPART    0               0            


**** 10/09/24 11:43:23 *** PSpice 23.1.0 (29 September 2023) ** ID# 0 ********

 ** Profile: "SCHEMATIC1-Prueba_circ"  [ c:\facultad\materias--4to-2do\sintesis de redes activas\sintesis_redes_activas\tp_balanza\or


 ****     INITIAL TRANSIENT SOLUTION       TEMPERATURE =   27.000 DEG C


******************************************************************************



 NODE   VOLTAGE     NODE   VOLTAGE     NODE   VOLTAGE     NODE   VOLTAGE


(N00215)     .0091 (N00219)     .0091 (N00223)     .1996 (N00448)    5.0000     

(N00462)   -5.0000 (N00998)    1.9930 (N01010)     .1993 (N01438)     .0100     

(N01442)    -.0100 (N03063)     .1996 (X_U3.4)    -.1882 (X_U3.5)   -4.9700     

(X_U3.6)   -4.9700 (X_U3.7)     .0091 (X_U3.9)     .2021 (X_U4.4)     .0022     

(X_U4.5)   -4.9698 (X_U4.6)   -4.9702 (X_U4.7)     .1996 (X_U4.9)    2.0448     

(X_U3.10)     .2021                   (X_U3.15)     .2021                       

(X_U3.32)     .2021                   (X_U3.33)     .2021                       

(X_U3.34)     .2021                   (X_U3.36)     .1996                       

(X_U3.37)     .3996                   (X_U3.38)    5.4336                       

(X_U3.40)    5.0000                   (X_U3.50)   -5.0000                       

(X_U3.98)    0.0000                   (X_U4.10)    2.0448                       

(X_U4.15)    2.0448                   (X_U4.32)    2.0448                       

(X_U4.33)    2.0448                   (X_U4.34)    2.0448                       

(X_U4.36)    1.9930                   (X_U4.37)    2.1930                       

(X_U4.38)    5.5122                   (X_U4.40)    5.0000                       

(X_U4.50)   -5.0000                   (X_U4.98)    0.0000                       

(X_U3.111)    4.8500                  (X_U3.112)   -4.8500                      

(X_U4.111)    4.8500                  (X_U4.112)   -4.8500                  




    VOLTAGE SOURCE CURRENTS
    NAME         CURRENT

    V_V3        -4.377E-04
    V_V4        -2.000E-05
    V_V2        -9.091E-07
    V_V1        -1.906E-05
    X_U3.vneg   -1.000E-05
    X_U3.VB      0.000E+00
    X_U3.V11     5.648E-12
    X_U3.V12     6.052E-12
    X_U3.VOS    -1.973E-13
    X_U3.VA7    -1.434E-12
    X_U3.V5      2.073E-09
    X_U3.V4      1.030E-13
    X_U3.VA8     1.906E-05
    X_U4.vneg   -1.000E-05
    X_U4.VB      0.000E+00
    X_U4.V11     3.805E-12
    X_U4.V12     7.895E-12
    X_U4.VOS    -1.975E-13
    X_U4.VA7    -1.512E-12
    X_U4.V5      3.069E-10
    X_U4.V4      6.466E-12
    X_U4.VA8     3.986E-04

    TOTAL POWER DISSIPATION   2.29E-03  WATTS



          JOB CONCLUDED

**** 10/09/24 11:43:23 *** PSpice 23.1.0 (29 September 2023) ** ID# 0 ********

 ** Profile: "SCHEMATIC1-Prueba_circ"  [ c:\facultad\materias--4to-2do\sintesis de redes activas\sintesis_redes_activas\tp_balanza\or


 ****     JOB STATISTICS SUMMARY


******************************************************************************



  Total job time (using Solver 1)   =         .06
