
**** 08/25/24 18:11:22 *** PSpice 23.1.0 (29 September 2023) ** ID# 0 ********

 ** Profile: "SCHEMATIC1-sim"  [ D:\GD\Sintesis de redes activas\sintesis_redes_activas\Tp1\tp1_sra-pspicefiles\schematic1\sim.sim ] 


 ****     CIRCUIT DESCRIPTION


******************************************************************************




** Creating circuit file "sim.cir" 
** WARNING: THIS AUTOMATICALLY GENERATED FILE MAY BE OVERWRITTEN BY SUBSEQUENT SIMULATIONS

*Libraries: 
* Profile Libraries :
* Local Libraries :
* From [PSPICE NETLIST] section of C:\Users\maria\AppData\Roaming\SBP_23.1\cdssetup\OrCAD_PSpice\23.1.0\PSpice.ini file:
.lib "nom.lib" 

*Analysis directives: 
.TRAN  0 1000ns 0 
.OPTIONS ADVCONV
.PROBE64 V(alias(*)) I(alias(*)) W(alias(*)) D(alias(*)) NOISE(alias(*)) 
.INC "..\SCHEMATIC1.net" 



**** INCLUDING SCHEMATIC1.net ****
* source TP1_SRA
X_U1A         N00655 N00224 N03137 N03151 V01 LM324
X_U1B         N03639 N00236 N03137 N03151 V02 LM324
R_R1         N00224 N00236  1k  
R_R2         N00224 V01  1k  
R_R3         N00236 V02  1k  
R_R4         0 N00224  1k  
R_R5         V01 N00236  1k  
R_R6         0 V02  1meg  
V_V1         N00655 0 2V
V_V2         N03639 0 4V
V_V+         N03137 0 10Vdc
V_V-         0 N03151 10Vdc

**** RESUMING sim.cir ****
.END

**** 08/25/24 18:11:22 *** PSpice 23.1.0 (29 September 2023) ** ID# 0 ********

 ** Profile: "SCHEMATIC1-sim"  [ D:\GD\Sintesis de redes activas\sintesis_redes_activas\Tp1\tp1_sra-pspicefiles\schematic1\sim.sim ] 


 ****     Diode MODEL PARAMETERS


******************************************************************************




               X_U1A.dx        X_U1A.dy        X_U1B.dx        X_U1B.dy        
          IS  800.000000E-18  800.000000E-18  800.000000E-18  800.000000E-18 
          RS    1               1.000000E-03    1               1.000000E-03 
         CJO                   10.000000E-12                   10.000000E-12 


**** 08/25/24 18:11:22 *** PSpice 23.1.0 (29 September 2023) ** ID# 0 ********

 ** Profile: "SCHEMATIC1-sim"  [ D:\GD\Sintesis de redes activas\sintesis_redes_activas\Tp1\tp1_sra-pspicefiles\schematic1\sim.sim ] 


 ****     BJT MODEL PARAMETERS


******************************************************************************




               X_U1A.qx        X_U1B.qx        
               PNP             PNP             
       LEVEL    1               1            
          IS  800.000000E-18  800.000000E-18 
          BF  166.7           166.7          
          NF    1               1            
          BR    1               1            
          NR    1               1            
         ISS    0               0            
          RE    0               0            
          RC    0               0            
         CJE    0               0            
         VJE     .75             .75         
         CJC    0               0            
         VJC     .75             .75         
         MJC     .33             .33         
        XCJC    1               1            
         CJS    0               0            
         VJS     .75             .75         
          KF    0               0            
          AF    1               1            
          CN    2.2             2.2          
           D     .52             .52         


**** 08/25/24 18:11:22 *** PSpice 23.1.0 (29 September 2023) ** ID# 0 ********

 ** Profile: "SCHEMATIC1-sim"  [ D:\GD\Sintesis de redes activas\sintesis_redes_activas\Tp1\tp1_sra-pspicefiles\schematic1\sim.sim ] 


 ****     Current Controlled Switch MODEL PARAMETERS


******************************************************************************




               X_U1A.sw2       X_U1A.sw1       X_U1A.sw3       X_U1A.sw4       
         RON    1               1               1               1            
        ROFF   10.000000E+06   10.000000E+06   10.000000E+06   10.000000E+06 
         ION    0              -1.000000E-06   -1.000000E-06    0            
        IOFF   -1.000000E-06    0               0              -1.000000E-06 


               X_U1B.sw2       X_U1B.sw1       X_U1B.sw3       X_U1B.sw4       
         RON    1               1               1               1            
        ROFF   10.000000E+06   10.000000E+06   10.000000E+06   10.000000E+06 
         ION    0              -1.000000E-06   -1.000000E-06    0            
        IOFF   -1.000000E-06    0               0              -1.000000E-06 


**** 08/25/24 18:11:22 *** PSpice 23.1.0 (29 September 2023) ** ID# 0 ********

 ** Profile: "SCHEMATIC1-sim"  [ D:\GD\Sintesis de redes activas\sintesis_redes_activas\Tp1\tp1_sra-pspicefiles\schematic1\sim.sim ] 


 ****     INITIAL TRANSIENT SOLUTION       TEMPERATURE =   27.000 DEG C


******************************************************************************



 NODE   VOLTAGE     NODE   VOLTAGE     NODE   VOLTAGE     NODE   VOLTAGE


(  V01)    1.9990  (  V02)    7.9971  (N00224)    1.9992 (N00236)    3.9984     

(N00655)    2.0000 (N03137)   10.0000 (N03151)  -10.0000 (N03639)    4.0000     

(X_U1A.6)-348.2E-06                   (X_U1A.7)    1.8990                       

(X_U1A.8)    1.8990                   (X_U1A.9)    0.0000                       

(X_U1A.a)     .0020                   (X_U1A.b)   -9.9980                       

(X_U1B.6)    -.0016                   (X_U1B.7)    8.1975                       

(X_U1B.8)    8.1975                   (X_U1B.9)    0.0000                       

(X_U1B.a)    9.9960                   (X_U1B.b)    -.0040                       

(X_U1A.10)    2.6068                  (X_U1A.11)   -9.9603                      

(X_U1A.12)   -9.9612                  (X_U1A.13)    2.5930                      

(X_U1A.14)    2.5933                  (X_U1A.53)    8.5000                      

(X_U1A.54)   -9.1780                  (X_U1A.90)   -1.9997                      

(X_U1A.91)   40.0000                  (X_U1A.92)  -40.0000                      

(X_U1A.99)    0.0000                  (X_U1B.10)    4.6061                      

(X_U1B.11)   -9.9604                  (X_U1B.12)   -9.9619                      

(X_U1B.13)    4.5922                  (X_U1B.14)    4.5928                      

(X_U1B.53)    8.5000                  (X_U1B.54)   -9.1780                      

(X_U1B.90)    4.0067                  (X_U1B.91)   40.0000                      

(X_U1B.92)  -40.0000                  (X_U1B.99)    0.0000                  




    VOLTAGE SOURCE CURRENTS
    NAME         CURRENT

    V_V1         4.392E-08
    V_V2         4.307E-08
    V_V+        -8.443E-03
    V_V-        -6.435E-03
    X_U1A.vb    -3.482E-09
    X_U1A.vc     6.502E-12
    X_U1A.ve     1.243E-11
    X_U1A.vlim  -2.000E-03
    X_U1A.vlp   -4.200E-11
    X_U1A.vln   -3.800E-11
    X_U1B.vb    -1.565E-08
    X_U1B.vc     5.037E-13
    X_U1B.ve     1.843E-11
    X_U1B.vlim   4.007E-03
    X_U1B.vlp   -3.599E-11
    X_U1B.vln   -4.401E-11

    TOTAL POWER DISSIPATION   1.49E-01  WATTS



          JOB CONCLUDED

**** 08/25/24 18:11:22 *** PSpice 23.1.0 (29 September 2023) ** ID# 0 ********

 ** Profile: "SCHEMATIC1-sim"  [ D:\GD\Sintesis de redes activas\sintesis_redes_activas\Tp1\tp1_sra-pspicefiles\schematic1\sim.sim ] 


 ****     JOB STATISTICS SUMMARY


******************************************************************************



  Total job time (using Solver 1)   =         .03
