
**** 08/24/24 18:27:37 *** PSpice 23.1.0 (29 September 2023) ** ID# 0 ********

 ** Profile: "SCHEMATIC1-sim"  [ C:\FACULTAD\Materias--4to-2do\Sintesis de Redes Activas\sintesis_redes_activas\Tp1\Tp1_SRA-PSpiceFil


 ****     CIRCUIT DESCRIPTION


******************************************************************************




** Creating circuit file "sim.cir" 
** WARNING: THIS AUTOMATICALLY GENERATED FILE MAY BE OVERWRITTEN BY SUBSEQUENT SIMULATIONS

*Libraries: 
* Profile Libraries :
* Local Libraries :
* From [PSPICE NETLIST] section of C:\Users\enzog\AppData\Roaming\SPB_Data\cdssetup\OrCAD_PSpice\23.1.0\PSpice.ini file:
.lib "nom.lib" 

*Analysis directives: 
.TRAN  0 1000ns 0 
.OPTIONS ADVCONV
.PROBE64 V(alias(*)) I(alias(*)) W(alias(*)) D(alias(*)) NOISE(alias(*)) 
.INC "..\SCHEMATIC1.net" 



**** INCLUDING SCHEMATIC1.net ****
* source TP1_SRA
X_U1A         N00653 N00224 N00399 N00419 N00232 LM324
X_U1B         N00681 N00236 N00399 N00419 N00315 LM324
R_R1         N00224 N00236  1k  
R_R2         N00224 N00232  1k  
R_R3         N00236 N00315  1k  
R_R4         0 N00224  1k  
R_R5         N00232 N00236  1k  
V_V1         N00399 0 10Vdc
V_V2         0 N00419 10Vdc
R_R6         0 N00315  1000000  
V_V3         N00653 0 1Vdc
V_V4         N00681 0 1Vdc

**** RESUMING sim.cir ****
.END

**** 08/24/24 18:27:37 *** PSpice 23.1.0 (29 September 2023) ** ID# 0 ********

 ** Profile: "SCHEMATIC1-sim"  [ C:\FACULTAD\Materias--4to-2do\Sintesis de Redes Activas\sintesis_redes_activas\Tp1\Tp1_SRA-PSpiceFil


 ****     Diode MODEL PARAMETERS


******************************************************************************




               X_U1A.dx        X_U1A.dy        X_U1B.dx        X_U1B.dy        
          IS  800.000000E-18  800.000000E-18  800.000000E-18  800.000000E-18 
          RS    1               1.000000E-03    1               1.000000E-03 
         CJO                   10.000000E-12                   10.000000E-12 


**** 08/24/24 18:27:37 *** PSpice 23.1.0 (29 September 2023) ** ID# 0 ********

 ** Profile: "SCHEMATIC1-sim"  [ C:\FACULTAD\Materias--4to-2do\Sintesis de Redes Activas\sintesis_redes_activas\Tp1\Tp1_SRA-PSpiceFil


 ****     BJT MODEL PARAMETERS


******************************************************************************




               X_U1A.qx        X_U1B.qx        
               PNP             PNP             
       LEVEL    1               1            
          IS  800.000000E-18  800.000000E-18 
          BF  166.7           166.7          
          NF    1               1            
          BR    1               1            
          NR    1               1            
         ISS    0               0            
          RE    0               0            
          RC    0               0            
         CJE    0               0            
         VJE     .75             .75         
         CJC    0               0            
         VJC     .75             .75         
         MJC     .33             .33         
        XCJC    1               1            
         CJS    0               0            
         VJS     .75             .75         
          KF    0               0            
          AF    1               1            
          CN    2.2             2.2          
           D     .52             .52         


**** 08/24/24 18:27:37 *** PSpice 23.1.0 (29 September 2023) ** ID# 0 ********

 ** Profile: "SCHEMATIC1-sim"  [ C:\FACULTAD\Materias--4to-2do\Sintesis de Redes Activas\sintesis_redes_activas\Tp1\Tp1_SRA-PSpiceFil


 ****     Current Controlled Switch MODEL PARAMETERS


******************************************************************************




               X_U1A.sw2       X_U1A.sw1       X_U1A.sw3       X_U1A.sw4       
         RON    1               1               1               1            
        ROFF   10.000000E+06   10.000000E+06   10.000000E+06   10.000000E+06 
         ION    0              -1.000000E-06   -1.000000E-06    0            
        IOFF   -1.000000E-06    0               0              -1.000000E-06 


               X_U1B.sw2       X_U1B.sw1       X_U1B.sw3       X_U1B.sw4       
         RON    1               1               1               1            
        ROFF   10.000000E+06   10.000000E+06   10.000000E+06   10.000000E+06 
         ION    0              -1.000000E-06   -1.000000E-06    0            
        IOFF   -1.000000E-06    0               0              -1.000000E-06 


**** 08/24/24 18:27:37 *** PSpice 23.1.0 (29 September 2023) ** ID# 0 ********

 ** Profile: "SCHEMATIC1-sim"  [ C:\FACULTAD\Materias--4to-2do\Sintesis de Redes Activas\sintesis_redes_activas\Tp1\Tp1_SRA-PSpiceFil


 ****     INITIAL TRANSIENT SOLUTION       TEMPERATURE =   27.000 DEG C


******************************************************************************



 NODE   VOLTAGE     NODE   VOLTAGE     NODE   VOLTAGE     NODE   VOLTAGE


(N00224)     .9995 (N00232)    1.9989 (N00236)     .9995 (N00315) 89.53E-06     

(N00399)   10.0000 (N00419)  -10.0000 (N00653)    1.0000 (N00681)    1.0000     

(X_U1A.6)-405.4E-06                   (X_U1A.7)    2.0988                       

(X_U1A.8)    2.0988                   (X_U1A.9)    0.0000                       

(X_U1A.a)    9.9980                   (X_U1A.b)    -.0020                       

(X_U1B.6) 14.30E-06                   (X_U1B.7)    -.0499                       

(X_U1B.8)    -.0499                   (X_U1B.9)    0.0000                       

(X_U1B.a)     .0010                   (X_U1B.b)   -9.9990                       

(X_U1A.10)    1.6072                  (X_U1A.11)   -9.9603                      

(X_U1A.12)   -9.9608                  (X_U1A.13)    1.5933                      

(X_U1A.14)    1.5935                  (X_U1A.53)    8.5000                      

(X_U1A.54)   -9.1780                  (X_U1A.90)    1.9988                      

(X_U1A.91)   40.0000                  (X_U1A.92)  -40.0000                      

(X_U1A.99)    0.0000                  (X_U1B.10)    1.6072                      

(X_U1B.11)   -9.9603                  (X_U1B.12)   -9.9608                      

(X_U1B.13)    1.5933                  (X_U1B.14)    1.5935                      

(X_U1B.53)    8.5000                  (X_U1B.54)   -9.1780                      

(X_U1B.90)    -.9994                  (X_U1B.91)   40.0000                      

(X_U1B.92)  -40.0000                  (X_U1B.99)    0.0000                  




    VOLTAGE SOURCE CURRENTS
    NAME         CURRENT

    V_V1        -6.435E-03
    V_V2        -5.435E-03
    V_V3         4.432E-08
    V_V4         4.433E-08
    X_U1A.vb    -4.054E-09
    X_U1A.vc     6.502E-12
    X_U1A.ve     1.243E-11
    X_U1A.vlim   1.999E-03
    X_U1A.vlp   -3.800E-11
    X_U1A.vln   -4.200E-11
    X_U1B.vb     1.430E-10
    X_U1B.vc     8.501E-12
    X_U1B.ve     1.044E-11
    X_U1B.vlim  -9.994E-04
    X_U1B.vlp   -4.100E-11
    X_U1B.vln   -3.901E-11

    TOTAL POWER DISSIPATION   1.19E-01  WATTS



          JOB CONCLUDED

**** 08/24/24 18:27:37 *** PSpice 23.1.0 (29 September 2023) ** ID# 0 ********

 ** Profile: "SCHEMATIC1-sim"  [ C:\FACULTAD\Materias--4to-2do\Sintesis de Redes Activas\sintesis_redes_activas\Tp1\Tp1_SRA-PSpiceFil


 ****     JOB STATISTICS SUMMARY


******************************************************************************



  Total job time (using Solver 1)   =         .05
