
**** 08/25/24 17:44:47 *** PSpice 23.1.0 (29 September 2023) ** ID# 0 ********

 ** Profile: "SCHEMATIC1-sim"  [ D:\GD\Sintesis de redes activas\sintesis_redes_activas\Tp1\tp1_sra-pspicefiles\schematic1\sim.sim ] 


 ****     CIRCUIT DESCRIPTION


******************************************************************************




** Creating circuit file "sim.cir" 
** WARNING: THIS AUTOMATICALLY GENERATED FILE MAY BE OVERWRITTEN BY SUBSEQUENT SIMULATIONS

*Libraries: 
* Profile Libraries :
* Local Libraries :
* From [PSPICE NETLIST] section of C:\Users\maria\AppData\Roaming\SBP_23.1\cdssetup\OrCAD_PSpice\23.1.0\PSpice.ini file:
.lib "nom.lib" 

*Analysis directives: 
.TRAN  0 1000ns 0 
.OPTIONS ADVCONV
.PROBE64 V(alias(*)) I(alias(*)) W(alias(*)) D(alias(*)) NOISE(alias(*)) 
.INC "..\SCHEMATIC1.net" 



**** INCLUDING SCHEMATIC1.net ****
* source TP1_SRA
X_U1A         N00655 N00224 N03137 N03151 V01 LM324
X_U1B         N03639 N00236 N03137 N03151 V02 LM324
R_R1         N00224 N00236  1k  
R_R2         N00224 V01  1k  
R_R3         N00236 V02  1k  
R_R4         0 N00224  1k  
R_R5         V01 N00236  1k  
R_R6         0 V02  1meg  
V_V1         N00655 0 3V
V_V2         N03639 0 0.5V
V_V+         N03137 0 10Vdc
V_V-         0 N03151 10Vdc

**** RESUMING sim.cir ****
.END

**** 08/25/24 17:44:47 *** PSpice 23.1.0 (29 September 2023) ** ID# 0 ********

 ** Profile: "SCHEMATIC1-sim"  [ D:\GD\Sintesis de redes activas\sintesis_redes_activas\Tp1\tp1_sra-pspicefiles\schematic1\sim.sim ] 


 ****     Diode MODEL PARAMETERS


******************************************************************************




               X_U1A.dx        X_U1A.dy        X_U1B.dx        X_U1B.dy        
          IS  800.000000E-18  800.000000E-18  800.000000E-18  800.000000E-18 
          RS    1               1.000000E-03    1               1.000000E-03 
         CJO                   10.000000E-12                   10.000000E-12 


**** 08/25/24 17:44:47 *** PSpice 23.1.0 (29 September 2023) ** ID# 0 ********

 ** Profile: "SCHEMATIC1-sim"  [ D:\GD\Sintesis de redes activas\sintesis_redes_activas\Tp1\tp1_sra-pspicefiles\schematic1\sim.sim ] 


 ****     BJT MODEL PARAMETERS


******************************************************************************




               X_U1A.qx        X_U1B.qx        
               PNP             PNP             
       LEVEL    1               1            
          IS  800.000000E-18  800.000000E-18 
          BF  166.7           166.7          
          NF    1               1            
          BR    1               1            
          NR    1               1            
         ISS    0               0            
          RE    0               0            
          RC    0               0            
         CJE    0               0            
         VJE     .75             .75         
         CJC    0               0            
         VJC     .75             .75         
         MJC     .33             .33         
        XCJC    1               1            
         CJS    0               0            
         VJS     .75             .75         
          KF    0               0            
          AF    1               1            
          CN    2.2             2.2          
           D     .52             .52         


**** 08/25/24 17:44:47 *** PSpice 23.1.0 (29 September 2023) ** ID# 0 ********

 ** Profile: "SCHEMATIC1-sim"  [ D:\GD\Sintesis de redes activas\sintesis_redes_activas\Tp1\tp1_sra-pspicefiles\schematic1\sim.sim ] 


 ****     Current Controlled Switch MODEL PARAMETERS


******************************************************************************




               X_U1A.sw2       X_U1A.sw1       X_U1A.sw3       X_U1A.sw4       
         RON    1               1               1               1            
        ROFF   10.000000E+06   10.000000E+06   10.000000E+06   10.000000E+06 
         ION    0              -1.000000E-06   -1.000000E-06    0            
        IOFF   -1.000000E-06    0               0              -1.000000E-06 


               X_U1B.sw2       X_U1B.sw1       X_U1B.sw3       X_U1B.sw4       
         RON    1               1               1               1            
        ROFF   10.000000E+06   10.000000E+06   10.000000E+06   10.000000E+06 
         ION    0              -1.000000E-06   -1.000000E-06    0            
        IOFF   -1.000000E-06    0               0              -1.000000E-06 


**** 08/25/24 17:44:47 *** PSpice 23.1.0 (29 September 2023) ** ID# 0 ********

 ** Profile: "SCHEMATIC1-sim"  [ D:\GD\Sintesis de redes activas\sintesis_redes_activas\Tp1\tp1_sra-pspicefiles\schematic1\sim.sim ] 


 ****     INITIAL TRANSIENT SOLUTION       TEMPERATURE =   27.000 DEG C


******************************************************************************



 NODE   VOLTAGE     NODE   VOLTAGE     NODE   VOLTAGE     NODE   VOLTAGE


(  V01)    8.4914  (  V02)   -9.9759  (N00224)    2.9988 (N00236)     .5048     

(N00655)    3.0000 (N03137)   10.0000 (N03151)  -10.0000 (N03639)     .5000     

(X_U1A.6)    -.0018                   (X_U1A.7)    9.1654                       

(X_U1A.8)    9.1654                   (X_U1A.9)    0.0000                       

(X_U1A.a)    9.9865                   (X_U1A.b)    -.0135                       

(X_U1B.6)     .0964                   (X_U1B.7)  -11.4980                       

(X_U1B.8)  -11.4980                   (X_U1B.9)    0.0000                       

(X_U1B.a)     .0304                   (X_U1B.b)   -9.9696                       

(X_U1A.10)    3.6064                  (X_U1A.11)   -9.9603                      

(X_U1A.12)   -9.9615                  (X_U1A.13)    3.5926                      

(X_U1A.14)    3.5930                  (X_U1A.53)    8.5000                      

(X_U1A.54)   -9.1780                  (X_U1A.90)   13.4790                      

(X_U1A.91)   40.0000                  (X_U1A.92)  -40.0000                      

(X_U1A.99)    0.0000                  (X_U1B.10)    1.1099                      

(X_U1B.11)   -9.9628                  (X_U1B.12)   -9.9581                      

(X_U1B.13)    1.0969                  (X_U1B.14)    1.0952                      

(X_U1B.53)    8.5000                  (X_U1B.54)   -9.1780                      

(X_U1B.90)  -30.4460                  (X_U1B.91)   40.0000                      

(X_U1B.92)  -40.0000                  (X_U1B.99)    0.0000                  




    VOLTAGE SOURCE CURRENTS
    NAME         CURRENT

    V_V1         4.347E-08
    V_V2         4.742E-08
    V_V+        -1.792E-02
    V_V-        -1.493E-02
    X_U1A.vb    -1.794E-08
    X_U1A.vc     8.803E-15
    X_U1A.ve     1.893E-11
    X_U1A.vlim   1.348E-02
    X_U1A.vlp   -2.652E-11
    X_U1A.vln   -5.348E-11
    X_U1B.vb     9.636E-07
    X_U1B.vc     1.848E-11
    X_U1B.ve    -1.996E-02
    X_U1B.vlim  -3.045E-02
    X_U1B.vlp   -7.045E-11
    X_U1B.vln   -9.558E-12

    TOTAL POWER DISSIPATION   3.45E-01  WATTS



          JOB CONCLUDED

**** 08/25/24 17:44:47 *** PSpice 23.1.0 (29 September 2023) ** ID# 0 ********

 ** Profile: "SCHEMATIC1-sim"  [ D:\GD\Sintesis de redes activas\sintesis_redes_activas\Tp1\tp1_sra-pspicefiles\schematic1\sim.sim ] 


 ****     JOB STATISTICS SUMMARY


******************************************************************************



  Total job time (using Solver 1)   =         .02
